
T22C0 000:297 SEGGER J-Link V4.91b (beta) Log File (0054ms, 0321ms total)
T22C0 000:297 DLL Compiled: Sep 15 2014 09:17:56 (0054ms, 0321ms total)
T22C0 000:297 Logging started @ 2017-12-28 06:49 (0054ms, 0321ms total)
T22C0 000:351 JLINK_SetWarnOutHandler(...) (0000ms, 0321ms total)
T22C0 000:351 JLINK_OpenEx(...)
Firmware: J-Link ARM V8 compiled Nov 28 2014 13:44:46
Hardware: V8.00
Feature(s): RDI,FlashDL,FlashBP,JFlash,GDBFULL  returns O.K. (0266ms, 0587ms total)
T22C0 000:617 JLINK_SetErrorOutHandler(...) (0000ms, 0587ms total)
T22C0 000:617 JLINK_ExecCommand("ProjectFile = "E:\软件开发\20171224以太网WILLV2.10\20170904新控制器复位ram\Project\JLinkSettings.ini"", ...)  returns 0x00 (0002ms, 0589ms total)
T22C0 000:640 JLINK_ExecCommand("Device = STM32F103RB", ...)Device "STM32F103RB" selected (128 KB flash, 20 KB RAM).  returns 0x00 (0009ms, 0598ms total)
T22C0 000:649 JLINK_ExecCommand("DisableConnectionTimeout", ...)  returns 0x01 (0000ms, 0598ms total)
T22C0 000:649 JLINK_GetHardwareVersion()  returns 0x13880 (0000ms, 0598ms total)
T22C0 000:649 JLINK_GetDLLVersion()  returns 49102 (0000ms, 0598ms total)
T22C0 000:649 JLINK_GetFirmwareString(...) (0000ms, 0598ms total)
T22C0 000:669 JLINK_GetDLLVersion()  returns 49102 (0001ms, 0599ms total)
T22C0 000:670 JLINK_GetCompileDateTime() (0000ms, 0599ms total)
T22C0 000:675 JLINK_GetFirmwareString(...) (0000ms, 0599ms total)
T22C0 000:681 JLINK_GetHardwareVersion()  returns 0x13880 (0000ms, 0599ms total)
T22C0 000:697 JLINK_TIF_Select(JLINKARM_TIF_SWD)  returns 0x00 (0001ms, 0600ms total)
T22C0 000:698 JLINK_SetSpeed(2000) (0000ms, 0600ms total)
T22C0 000:698 JLINK_GetId() >0x108 TIF>Found SWD-DP with ID 0x1BA01477 >0x0D TIF> >0x28 TIF> >0x0D TIF> >0x28 TIF> >0x0D TIF> >0x21 TIF> >0x0D TIF> >0x28 TIF> >0x0D TIF> >0x28 TIF> >0x0D TIF> >0x28 TIF> >0x0D TIF> >0x21 TIF> >0x0D TIF> >0x21 TIF> >0x0D TIF> >0x28 TIF> >0x0D TIF> >0x21 TIF> >0x0D TIF> >0x21 TIF> >0x0D TIF> >0x28 TIF> >0x0D TIF> >0x28 TIF> >0x108 TIF>Found SWD-DP with ID 0x1BA01477 >0x0D TIF> >0x21 TIF> >0x0D TIF> >0x28 TIF> >0x0D TIF> >0x28 TIF> >0x0D TIF> >0x21 TIF> >0x0D TIF> >0x28 TIF>
 >0x0D TIF> >0x21 TIF> >0x0D TIF> >0x21 TIF> >0x0D TIF> >0x21 TIF> >0x0D TIF> >0x21 TIF> >0x0D TIF> >0x28 TIF> >0x0D TIF> >0x28 TIF> >0x0D TIF> >0x21 TIF> >0x0D TIF> >0x28 TIF> >0x0D TIF> >0x28 TIF> >0x0D TIF> >0x28 TIF> >0x0D TIF> >0x21 TIF> >0x0D TIF> >0x21 TIF> >0x0D TIF> >0x28 TIF> >0x0D TIF> >0x21 TIF> >0x0D TIF> >0x21 TIF>Found Cortex-M3 r1p1, Little endian. -- CPU_WriteMem(4 bytes @ 0xE0002000) -- CPU_ReadMem(4 bytes @ 0xE000EDF0) -- CPU_WriteMem(4 bytes @ 0xE000EDF0)
 -- CPU_ReadMem(4 bytes @ 0xE0002000)FPUnit: 6 code (BP) slots and 2 literal slots -- CPU_ReadMem(4 bytes @ 0xE000EDFC) -- CPU_WriteMem(4 bytes @ 0xE000EDFC) -- CPU_ReadMem(4 bytes @ 0xE0001000) -- CPU_WriteMem(4 bytes @ 0xE0001000) -- CPU_ReadMem(4 bytes @ 0xE000ED88) -- CPU_WriteMem(4 bytes @ 0xE000ED88) -- CPU_ReadMem(4 bytes @ 0xE000ED88) -- CPU_WriteMem(4 bytes @ 0xE000ED88) -- CPU_ReadMem(4 bytes @ 0xE00FF010)TPIU fitted. -- CPU_ReadMem(4 bytes @ 0xE00FF014) -- CPU_ReadMem(4 bytes @ 0xE00FF018)
 >0x0D TIF> >0x21 TIF>  returns 0x1BA01477 (0046ms, 0646ms total)
T22C0 000:744 JLINK_GetDeviceFamily()  returns 3 (0000ms, 0646ms total)
T22C0 000:748 JLINK_ReadMem (0xE00FFFF0, 0x0010 Bytes, ...) -- CPU is running -- CPU_ReadMem(16 bytes @ 0xE00FFFF0) - Data: 0D 00 00 00 10 00 00 00 05 00 00 00 B1 00 00 00  returns 0x00 (0001ms, 0647ms total)
T22C0 000:749 JLINK_ReadMem (0xE00FFFD0, 0x0020 Bytes, ...) -- CPU is running -- CPU_ReadMem(32 bytes @ 0xE00FFFD0) - Data: 00 00 00 00 00 00 00 00 00 00 00 00 00 00 00 00 ...  returns 0x00 (0001ms, 0648ms total)
T22C0 000:750 JLINK_ReadMem (0xE00FF000, 0x0018 Bytes, ...) -- CPU is running -- CPU_ReadMem(24 bytes @ 0xE00FF000) - Data: 03 F0 F0 FF 03 20 F0 FF 03 30 F0 FF 03 10 F0 FF ...  returns 0x00 (0001ms, 0649ms total)
T22C0 000:751 JLINK_ReadMemU32(0xE000ED00, 0x0001 Items, ...) -- CPU is running -- CPU_ReadMem(4 bytes @ 0xE000ED00) - Data: 31 C2 1F 41  returns 0x01 (0000ms, 0649ms total)
T22C0 000:751 JLINK_SetResetType(JLINKARM_RESET_TYPE_NORMAL)  returns JLINKARM_RESET_TYPE_NORMAL (0001ms, 0650ms total)
T22C0 000:752 JLINK_Reset() -- CPU is running -- CPU_WriteMem(4 bytes @ 0xE000EDF0) -- CPU is running -- CPU_WriteMem(4 bytes @ 0xE000EDFC) >0x35 TIF> -- CPU is running -- CPU_WriteMem(4 bytes @ 0xE000ED0C) -- CPU is running -- CPU_ReadMem(4 bytes @ 0xE000EDF0) -- CPU is running -- CPU_ReadMem(4 bytes @ 0xE000EDF0) -- CPU is running -- CPU_WriteMem(4 bytes @ 0xE000EDF0) -- CPU is running -- CPU_WriteMem(4 bytes @ 0xE000EDFC) -- CPU is running -- CPU_ReadMem(4 bytes @ 0xE000EDF0)
 -- CPU_WriteMem(4 bytes @ 0xE0002000) -- CPU_ReadMem(4 bytes @ 0xE000EDFC) -- CPU_ReadMem(4 bytes @ 0xE0001000) (0022ms, 0672ms total)
T22C0 000:774 JLINK_Halt()  returns 0x00 (0000ms, 0672ms total)
T22C0 000:774 JLINK_IsHalted()  returns TRUE (0000ms, 0672ms total)
T22C0 000:774 JLINK_ReadMemU32(0xE000EDF0, 0x0001 Items, ...) -- CPU_ReadMem(4 bytes @ 0xE000EDF0) - Data: 03 00 03 00  returns 0x01 (0001ms, 0673ms total)
T22C0 000:775 JLINK_WriteU32(0xE000EDF0, 0xA05F0003) -- CPU_WriteMem(4 bytes @ 0xE000EDF0)  returns 0x00 (0001ms, 0674ms total)
T22C0 000:776 JLINK_WriteU32(0xE000EDFC, 0x01000000) -- CPU_WriteMem(4 bytes @ 0xE000EDFC)  returns 0x00 (0001ms, 0675ms total)
T22C0 000:807 JLINK_GetHWStatus(...)  returns 0x00 (0000ms, 0675ms total)
T22C0 000:822 JLINK_GetNumBPUnits(Type = 0xFFFFFF00)  returns 0x06 (0000ms, 0675ms total)
T22C0 000:822 JLINK_GetNumBPUnits(Type = 0xF0)  returns 0x2000 (0000ms, 0675ms total)
T22C0 000:822 JLINK_GetNumWPUnits()  returns 0x04 (0000ms, 0675ms total)
T22C0 000:835 JLINK_GetSpeed()  returns 0x7D0 (0000ms, 0675ms total)
T22C0 000:845 JLINK_ReadMemU32(0xE000E004, 0x0001 Items, ...) -- CPU_ReadMem(4 bytes @ 0xE000E004) - Data: 01 00 00 00  returns 0x01 (0000ms, 0675ms total)
T22C0 000:846 JLINK_ReadMemU32(0xE000E004, 0x0001 Items, ...) -- CPU_ReadMem(4 bytes @ 0xE000E004) - Data: 01 00 00 00  returns 0x01 (0001ms, 0676ms total)
T22C0 000:847 JLINK_WriteMem(0xE0001000, 0x001C Bytes, ...) - Data: 01 00 00 00 00 00 00 00 00 00 00 00 00 00 00 00 ... -- CPU_WriteMem(28 bytes @ 0xE0001000)  returns 0x1C (0001ms, 0677ms total)
T22C0 000:848 JLINK_ReadMem (0xE0001000, 0x001C Bytes, ...) -- CPU_ReadMem(28 bytes @ 0xE0001000) - Data: 01 00 00 40 00 00 00 00 00 00 00 00 00 00 00 00 ...  returns 0x00 (0000ms, 0677ms total)
T22C0 000:848 JLINK_Halt()  returns 0x00 (0000ms, 0677ms total)
T22C0 000:848 JLINK_IsHalted()  returns TRUE (0000ms, 0677ms total)
T22C0 000:849 JLINK_WriteMem(0x20000000, 0x0164 Bytes, ...) - Data: 00 BE 0A E0 0D 78 2D 06 68 40 08 24 40 00 00 D3 ... -- CPU_WriteMem(356 bytes @ 0x20000000)  returns 0x164 (0005ms, 0682ms total)
T22C0 000:854 JLINK_WriteReg(R0, 0x08000000)  returns 0x00 (0000ms, 0682ms total)
T22C0 000:854 JLINK_WriteReg(R1, 0x00B71B00)  returns 0x00 (0000ms, 0682ms total)
T22C0 000:854 JLINK_WriteReg(R2, 0x00000001)  returns 0x00 (0000ms, 0682ms total)
T22C0 000:854 JLINK_WriteReg(R3, 0x00000000)  returns 0x00 (0000ms, 0682ms total)
T22C0 000:854 JLINK_WriteReg(R4, 0x00000000)  returns 0x00 (0000ms, 0682ms total)
T22C0 000:854 JLINK_WriteReg(R5, 0x00000000)  returns 0x00 (0000ms, 0682ms total)
T22C0 000:854 JLINK_WriteReg(R6, 0x00000000)  returns 0x00 (0000ms, 0682ms total)
T22C0 000:854 JLINK_WriteReg(R7, 0x00000000)  returns 0x00 (0000ms, 0682ms total)
T22C0 000:854 JLINK_WriteReg(R8, 0x00000000)  returns 0x00 (0000ms, 0682ms total)
T22C0 000:854 JLINK_WriteReg(R9, 0x20000160)  returns 0x00 (0000ms, 0682ms total)
T22C0 000:854 JLINK_WriteReg(R10, 0x00000000)  returns 0x00 (0000ms, 0682ms total)
T22C0 000:854 JLINK_WriteReg(R11, 0x00000000)  returns 0x00 (0000ms, 0682ms total)
T22C0 000:854 JLINK_WriteReg(R12, 0x00000000)  returns 0x00 (0000ms, 0682ms total)
T22C0 000:854 JLINK_WriteReg(R13 (SP), 0x20000800)  returns 0x00 (0000ms, 0682ms total)
T22C0 000:854 JLINK_WriteReg(R14, 0x20000001)  returns 0x00 (0000ms, 0682ms total)
T22C0 000:854 JLINK_WriteReg(R15 (PC), 0x20000038)  returns 0x00 (0001ms, 0683ms total)
T22C0 000:855 JLINK_WriteReg(XPSR, 0x01000000)  returns 0x00 (0000ms, 0683ms total)
T22C0 000:855 JLINK_WriteReg(MSP, 0x20000800)  returns 0x00 (0000ms, 0683ms total)
T22C0 000:855 JLINK_WriteReg(PSP, 0x20000800)  returns 0x00 (0000ms, 0683ms total)
T22C0 000:855 JLINK_WriteReg(CFBP, 0x00000000)  returns 0x00 (0000ms, 0683ms total)
T22C0 000:855 JLINK_SetBPEx(Addr = 0x20000000, Type = 0xFFFFFFF2) -- CPU_ReadMem(2 bytes @ 0x20000000)  returns 0x00000001 (0000ms, 0683ms total)
T22C0 000:855 JLINK_Go() -- CPU_WriteMem(2 bytes @ 0x20000000) -- CPU_WriteMem(4 bytes @ 0xE0002008) -- CPU_WriteMem(4 bytes @ 0xE000200C) -- CPU_WriteMem(4 bytes @ 0xE0002010) -- CPU_WriteMem(4 bytes @ 0xE0002014) -- CPU_WriteMem(4 bytes @ 0xE0002018) -- CPU_WriteMem(4 bytes @ 0xE000201C) -- CPU_WriteMem(4 bytes @ 0xE0001004) (0008ms, 0691ms total)
T22C0 000:863 JLINK_IsHalted() -- CPU_ReadMem(2 bytes @ 0x20000000)  returns TRUE (0004ms, 0695ms total)
T22C0 000:867 JLINK_ReadReg(R15 (PC))  returns 0x20000000 (0001ms, 0692ms total)
T22C0 000:868 JLINK_ClrBPEx(BPHandle = 0x00000001)  returns 0x00 (0000ms, 0692ms total)
T22C0 000:868 JLINK_ReadReg(R0)  returns 0x00000000 (0000ms, 0692ms total)
T22C0 000:868 JLINK_WriteReg(R0, 0x08000000)  returns 0x00 (0000ms, 0692ms total)
T22C0 000:868 JLINK_WriteReg(R1, 0x00B71B00)  returns 0x00 (0000ms, 0692ms total)
T22C0 000:868 JLINK_WriteReg(R2, 0x00000001)  returns 0x00 (0000ms, 0692ms total)
T22C0 000:868 JLINK_WriteReg(R3, 0x00000000)  returns 0x00 (0000ms, 0692ms total)
T22C0 000:868 JLINK_WriteReg(R4, 0x00000000)  returns 0x00 (0000ms, 0692ms total)
T22C0 000:868 JLINK_WriteReg(R5, 0x00000000)  returns 0x00 (0000ms, 0692ms total)
T22C0 000:868 JLINK_WriteReg(R6, 0x00000000)  returns 0x00 (0000ms, 0692ms total)
T22C0 000:868 JLINK_WriteReg(R7, 0x00000000)  returns 0x00 (0000ms, 0692ms total)
T22C0 000:868 JLINK_WriteReg(R8, 0x00000000)  returns 0x00 (0000ms, 0692ms total)
T22C0 000:868 JLINK_WriteReg(R9, 0x20000160)  returns 0x00 (0000ms, 0692ms total)
T22C0 000:868 JLINK_WriteReg(R10, 0x00000000)  returns 0x00 (0000ms, 0692ms total)
T22C0 000:868 JLINK_WriteReg(R11, 0x00000000)  returns 0x00 (0000ms, 0692ms total)
T22C0 000:868 JLINK_WriteReg(R12, 0x00000000)  returns 0x00 (0000ms, 0692ms total)
T22C0 000:868 JLINK_WriteReg(R13 (SP), 0x20000800)  returns 0x00 (0001ms, 0693ms total)
T22C0 000:869 JLINK_WriteReg(R14, 0x20000001)  returns 0x00 (0000ms, 0693ms total)
T22C0 000:869 JLINK_WriteReg(R15 (PC), 0x2000007C)  returns 0x00 (0000ms, 0693ms total)
T22C0 000:869 JLINK_WriteReg(XPSR, 0x01000000)  returns 0x00 (0000ms, 0693ms total)
T22C0 000:869 JLINK_WriteReg(MSP, 0x20000800)  returns 0x00 (0000ms, 0693ms total)
T22C0 000:869 JLINK_WriteReg(PSP, 0x20000800)  returns 0x00 (0000ms, 0693ms total)
T22C0 000:869 JLINK_WriteReg(CFBP, 0x00000000)  returns 0x00 (0000ms, 0693ms total)
T22C0 000:869 JLINK_SetBPEx(Addr = 0x20000000, Type = 0xFFFFFFF2)  returns 0x00000002 (0000ms, 0693ms total)
T22C0 000:869 JLINK_Go() (0002ms, 0695ms total)
T22C0 000:871 JLINK_IsHalted()  returns FALSE (0000ms, 0695ms total)
T22C0 000:916 JLINK_IsHalted() -- CPU_ReadMem(2 bytes @ 0x20000000)  returns TRUE (0004ms, 0699ms total)
T22C0 000:920 JLINK_ReadReg(R15 (PC))  returns 0x20000000 (0000ms, 0695ms total)
T22C0 000:920 JLINK_ClrBPEx(BPHandle = 0x00000002)  returns 0x00 (0000ms, 0695ms total)
T22C0 000:920 JLINK_ReadReg(R0)  returns 0x00000000 (0000ms, 0695ms total)
T22C0 000:972 JLINK_WriteReg(R0, 0x00000001)  returns 0x00 (0000ms, 0695ms total)
T22C0 000:972 JLINK_WriteReg(R1, 0x00B71B00)  returns 0x00 (0000ms, 0695ms total)
T22C0 000:972 JLINK_WriteReg(R2, 0x00000001)  returns 0x00 (0000ms, 0695ms total)
T22C0 000:972 JLINK_WriteReg(R3, 0x00000000)  returns 0x00 (0000ms, 0695ms total)
T22C0 000:972 JLINK_WriteReg(R4, 0x00000000)  returns 0x00 (0000ms, 0695ms total)
T22C0 000:972 JLINK_WriteReg(R5, 0x00000000)  returns 0x00 (0000ms, 0695ms total)
T22C0 000:972 JLINK_WriteReg(R6, 0x00000000)  returns 0x00 (0000ms, 0695ms total)
T22C0 000:972 JLINK_WriteReg(R7, 0x00000000)  returns 0x00 (0000ms, 0695ms total)
T22C0 000:972 JLINK_WriteReg(R8, 0x00000000)  returns 0x00 (0000ms, 0695ms total)
T22C0 000:972 JLINK_WriteReg(R9, 0x20000160)  returns 0x00 (0000ms, 0695ms total)
T22C0 000:972 JLINK_WriteReg(R10, 0x00000000)  returns 0x00 (0000ms, 0695ms total)
T22C0 000:972 JLINK_WriteReg(R11, 0x00000000)  returns 0x00 (0000ms, 0695ms total)
T22C0 000:972 JLINK_WriteReg(R12, 0x00000000)  returns 0x00 (0000ms, 0695ms total)
T22C0 000:972 JLINK_WriteReg(R13 (SP), 0x20000800)  returns 0x00 (0000ms, 0695ms total)
T22C0 000:972 JLINK_WriteReg(R14, 0x20000001)  returns 0x00 (0000ms, 0695ms total)
T22C0 000:972 JLINK_WriteReg(R15 (PC), 0x2000006A)  returns 0x00 (0000ms, 0695ms total)
T22C0 000:972 JLINK_WriteReg(XPSR, 0x01000000)  returns 0x00 (0000ms, 0695ms total)
T22C0 000:972 JLINK_WriteReg(MSP, 0x20000800)  returns 0x00 (0000ms, 0695ms total)
T22C0 000:973 JLINK_WriteReg(PSP, 0x20000800)  returns 0x00 (0000ms, 0696ms total)
T22C0 000:973 JLINK_WriteReg(CFBP, 0x00000000)  returns 0x00 (0000ms, 0696ms total)
T22C0 000:973 JLINK_SetBPEx(Addr = 0x20000000, Type = 0xFFFFFFF2)  returns 0x00000003 (0000ms, 0696ms total)
T22C0 000:973 JLINK_Go() (0002ms, 0698ms total)
T22C0 000:975 JLINK_IsHalted() -- CPU_ReadMem(2 bytes @ 0x20000000)  returns TRUE (0004ms, 0702ms total)
T22C0 000:979 JLINK_ReadReg(R15 (PC))  returns 0x20000000 (0000ms, 0698ms total)
T22C0 000:979 JLINK_ClrBPEx(BPHandle = 0x00000003)  returns 0x00 (0000ms, 0698ms total)
T22C0 000:979 JLINK_ReadReg(R0)  returns 0x00000000 (0000ms, 0698ms total)
T22C0 000:990 JLINK_WriteMem(0x20000000, 0x0164 Bytes, ...) - Data: 00 BE 0A E0 0D 78 2D 06 68 40 08 24 40 00 00 D3 ... -- CPU_WriteMem(356 bytes @ 0x20000000)  returns 0x164 (0005ms, 0703ms total)
T22C0 000:995 JLINK_WriteReg(R0, 0x08000000)  returns 0x00 (0000ms, 0703ms total)
T22C0 000:995 JLINK_WriteReg(R1, 0x00B71B00)  returns 0x00 (0000ms, 0703ms total)
T22C0 000:995 JLINK_WriteReg(R2, 0x00000002)  returns 0x00 (0000ms, 0703ms total)
T22C0 000:995 JLINK_WriteReg(R3, 0x00000000)  returns 0x00 (0000ms, 0703ms total)
T22C0 000:995 JLINK_WriteReg(R4, 0x00000000)  returns 0x00 (0000ms, 0703ms total)
T22C0 000:995 JLINK_WriteReg(R5, 0x00000000)  returns 0x00 (0000ms, 0703ms total)
T22C0 000:995 JLINK_WriteReg(R6, 0x00000000)  returns 0x00 (0000ms, 0703ms total)
T22C0 000:995 JLINK_WriteReg(R7, 0x00000000)  returns 0x00 (0000ms, 0703ms total)
T22C0 000:995 JLINK_WriteReg(R8, 0x00000000)  returns 0x00 (0000ms, 0703ms total)
T22C0 000:995 JLINK_WriteReg(R9, 0x20000160)  returns 0x00 (0000ms, 0703ms total)
T22C0 000:995 JLINK_WriteReg(R10, 0x00000000)  returns 0x00 (0000ms, 0703ms total)
T22C0 000:995 JLINK_WriteReg(R11, 0x00000000)  returns 0x00 (0000ms, 0703ms total)
T22C0 000:995 JLINK_WriteReg(R12, 0x00000000)  returns 0x00 (0000ms, 0703ms total)
T22C0 000:995 JLINK_WriteReg(R13 (SP), 0x20000800)  returns 0x00 (0000ms, 0703ms total)
T22C0 000:995 JLINK_WriteReg(R14, 0x20000001)  returns 0x00 (0000ms, 0703ms total)
T22C0 000:995 JLINK_WriteReg(R15 (PC), 0x20000038)  returns 0x00 (0000ms, 0703ms total)
T22C0 000:995 JLINK_WriteReg(XPSR, 0x01000000)  returns 0x00 (0000ms, 0703ms total)
T22C0 000:996 JLINK_WriteReg(MSP, 0x20000800)  returns 0x00 (0000ms, 0704ms total)
T22C0 000:996 JLINK_WriteReg(PSP, 0x20000800)  returns 0x00 (0000ms, 0704ms total)
T22C0 000:996 JLINK_WriteReg(CFBP, 0x00000000)  returns 0x00 (0000ms, 0704ms total)
T22C0 000:996 JLINK_SetBPEx(Addr = 0x20000000, Type = 0xFFFFFFF2) -- CPU_ReadMem(2 bytes @ 0x20000000)  returns 0x00000004 (0000ms, 0704ms total)
T22C0 000:996 JLINK_Go() -- CPU_WriteMem(2 bytes @ 0x20000000) (0003ms, 0707ms total)
T22C0 000:999 JLINK_IsHalted() -- CPU_ReadMem(2 bytes @ 0x20000000)  returns TRUE (0004ms, 0711ms total)
T22C0 001:003 JLINK_ReadReg(R15 (PC))  returns 0x20000000 (0001ms, 0708ms total)
T22C0 001:004 JLINK_ClrBPEx(BPHandle = 0x00000004)  returns 0x00 (0000ms, 0708ms total)
T22C0 001:004 JLINK_ReadReg(R0)  returns 0x00000000 (0000ms, 0708ms total)
T22C0 001:004 JLINK_WriteMem(0x20000164, 0x0400 Bytes, ...) - Data: E8 0F 00 20 01 01 00 08 FD 1F 00 08 FF 1F 00 08 ... -- CPU_WriteMem(1024 bytes @ 0x20000164)  returns 0x400 (0012ms, 0720ms total)
T22C0 001:016 JLINK_WriteReg(R0, 0x08000000)  returns 0x00 (0000ms, 0720ms total)
T22C0 001:016 JLINK_WriteReg(R1, 0x00000400)  returns 0x00 (0000ms, 0720ms total)
T22C0 001:016 JLINK_WriteReg(R2, 0x20000164)  returns 0x00 (0000ms, 0720ms total)
T22C0 001:016 JLINK_WriteReg(R3, 0x00000000)  returns 0x00 (0000ms, 0720ms total)
T22C0 001:016 JLINK_WriteReg(R4, 0x00000000)  returns 0x00 (0000ms, 0720ms total)
T22C0 001:016 JLINK_WriteReg(R5, 0x00000000)  returns 0x00 (0000ms, 0720ms total)
T22C0 001:016 JLINK_WriteReg(R6, 0x00000000)  returns 0x00 (0000ms, 0720ms total)
T22C0 001:016 JLINK_WriteReg(R7, 0x00000000)  returns 0x00 (0000ms, 0720ms total)
T22C0 001:016 JLINK_WriteReg(R8, 0x00000000)  returns 0x00 (0000ms, 0720ms total)
T22C0 001:016 JLINK_WriteReg(R9, 0x20000160)  returns 0x00 (0000ms, 0720ms total)
T22C0 001:016 JLINK_WriteReg(R10, 0x00000000)  returns 0x00 (0000ms, 0720ms total)
T22C0 001:016 JLINK_WriteReg(R11, 0x00000000)  returns 0x00 (0000ms, 0720ms total)
T22C0 001:016 JLINK_WriteReg(R12, 0x00000000)  returns 0x00 (0000ms, 0720ms total)
T22C0 001:016 JLINK_WriteReg(R13 (SP), 0x20000800)  returns 0x00 (0000ms, 0720ms total)
T22C0 001:016 JLINK_WriteReg(R14, 0x20000001)  returns 0x00 (0000ms, 0720ms total)
T22C0 001:016 JLINK_WriteReg(R15 (PC), 0x200000F4)  returns 0x00 (0000ms, 0720ms total)
T22C0 001:016 JLINK_WriteReg(XPSR, 0x01000000)  returns 0x00 (0001ms, 0721ms total)
T22C0 001:017 JLINK_WriteReg(MSP, 0x20000800)  returns 0x00 (0000ms, 0721ms total)
T22C0 001:017 JLINK_WriteReg(PSP, 0x20000800)  returns 0x00 (0000ms, 0721ms total)
T22C0 001:017 JLINK_WriteReg(CFBP, 0x00000000)  returns 0x00 (0000ms, 0721ms total)
T22C0 001:017 JLINK_SetBPEx(Addr = 0x20000000, Type = 0xFFFFFFF2)  returns 0x00000005 (0000ms, 0721ms total)
T22C0 001:017 JLINK_Go() (0002ms, 0723ms total)
T22C0 001:019 JLINK_IsHalted()  returns FALSE (0001ms, 0724ms total)
T22C0 001:034 JLINK_IsHalted()  returns FALSE (0001ms, 0724ms total)
T22C0 001:037 JLINK_IsHalted()  returns FALSE (0000ms, 0723ms total)
T22C0 001:039 JLINK_IsHalted()  returns FALSE (0000ms, 0723ms total)
T22C0 001:041 JLINK_IsHalted()  returns FALSE (0000ms, 0723ms total)
T22C0 001:043 JLINK_IsHalted()  returns FALSE (0000ms, 0723ms total)
T22C0 001:045 JLINK_IsHalted()  returns FALSE (0000ms, 0723ms total)
T22C0 001:053 JLINK_IsHalted() -- CPU_ReadMem(2 bytes @ 0x20000000)  returns TRUE (0004ms, 0727ms total)
T22C0 001:057 JLINK_ReadReg(R15 (PC))  returns 0x20000000 (0000ms, 0723ms total)
T22C0 001:057 JLINK_ClrBPEx(BPHandle = 0x00000005)  returns 0x00 (0000ms, 0723ms total)
T22C0 001:057 JLINK_ReadReg(R0)  returns 0x00000000 (0001ms, 0724ms total)
T22C0 001:058 JLINK_WriteMem(0x20000164, 0x0400 Bytes, ...) - Data: 88 43 D6 1F 06 EB 86 06 05 FA 06 F1 08 43 20 63 ... -- CPU_WriteMem(1024 bytes @ 0x20000164)  returns 0x400 (0011ms, 0735ms total)
T22C0 001:069 JLINK_WriteReg(R0, 0x08000400)  returns 0x00 (0000ms, 0735ms total)
T22C0 001:069 JLINK_WriteReg(R1, 0x00000400)  returns 0x00 (0000ms, 0735ms total)
T22C0 001:069 JLINK_WriteReg(R2, 0x20000164)  returns 0x00 (0000ms, 0735ms total)
T22C0 001:069 JLINK_WriteReg(R3, 0x00000000)  returns 0x00 (0000ms, 0735ms total)
T22C0 001:069 JLINK_WriteReg(R4, 0x00000000)  returns 0x00 (0000ms, 0735ms total)
T22C0 001:069 JLINK_WriteReg(R5, 0x00000000)  returns 0x00 (0000ms, 0735ms total)
T22C0 001:069 JLINK_WriteReg(R6, 0x00000000)  returns 0x00 (0000ms, 0735ms total)
T22C0 001:069 JLINK_WriteReg(R7, 0x00000000)  returns 0x00 (0000ms, 0735ms total)
T22C0 001:069 JLINK_WriteReg(R8, 0x00000000)  returns 0x00 (0000ms, 0735ms total)
T22C0 001:069 JLINK_WriteReg(R9, 0x20000160)  returns 0x00 (0000ms, 0735ms total)
T22C0 001:069 JLINK_WriteReg(R10, 0x00000000)  returns 0x00 (0000ms, 0735ms total)
T22C0 001:069 JLINK_WriteReg(R11, 0x00000000)  returns 0x00 (0000ms, 0735ms total)
T22C0 001:069 JLINK_WriteReg(R12, 0x00000000)  returns 0x00 (0000ms, 0735ms total)
T22C0 001:069 JLINK_WriteReg(R13 (SP), 0x20000800)  returns 0x00 (0000ms, 0735ms total)
T22C0 001:069 JLINK_WriteReg(R14, 0x20000001)  returns 0x00 (0000ms, 0735ms total)
T22C0 001:069 JLINK_WriteReg(R15 (PC), 0x200000F4)  returns 0x00 (0001ms, 0736ms total)
T22C0 001:070 JLINK_WriteReg(XPSR, 0x01000000)  returns 0x00 (0000ms, 0736ms total)
T22C0 001:070 JLINK_WriteReg(MSP, 0x20000800)  returns 0x00 (0000ms, 0736ms total)
T22C0 001:070 JLINK_WriteReg(PSP, 0x20000800)  returns 0x00 (0000ms, 0736ms total)
T22C0 001:070 JLINK_WriteReg(CFBP, 0x00000000)  returns 0x00 (0000ms, 0736ms total)
T22C0 001:070 JLINK_SetBPEx(Addr = 0x20000000, Type = 0xFFFFFFF2)  returns 0x00000006 (0000ms, 0736ms total)
T22C0 001:070 JLINK_Go() (0003ms, 0739ms total)
T22C0 001:073 JLINK_IsHalted()  returns FALSE (0000ms, 0739ms total)
T22C0 001:075 JLINK_IsHalted()  returns FALSE (0000ms, 0739ms total)
T22C0 001:078 JLINK_IsHalted()  returns FALSE (0000ms, 0739ms total)
T22C0 001:080 JLINK_IsHalted()  returns FALSE (0000ms, 0739ms total)
T22C0 001:082 JLINK_IsHalted()  returns FALSE (0000ms, 0739ms total)
T22C0 001:084 JLINK_IsHalted()  returns FALSE (0000ms, 0739ms total)
T22C0 001:086 JLINK_IsHalted()  returns FALSE (0000ms, 0739ms total)
T22C0 001:088 JLINK_IsHalted()  returns FALSE (0000ms, 0739ms total)
T22C0 001:090 JLINK_IsHalted()  returns FALSE (0000ms, 0739ms total)
T22C0 001:092 JLINK_IsHalted()  returns FALSE (0000ms, 0739ms total)
T22C0 001:094 JLINK_IsHalted()  returns FALSE (0001ms, 0740ms total)
T22C0 001:096 JLINK_IsHalted()  returns FALSE (0001ms, 0740ms total)
T22C0 001:098 JLINK_IsHalted()  returns FALSE (0000ms, 0739ms total)
T22C0 001:100 JLINK_IsHalted()  returns FALSE (0000ms, 0739ms total)
T22C0 001:102 JLINK_IsHalted()  returns FALSE (0000ms, 0739ms total)
T22C0 001:105 JLINK_IsHalted() -- CPU_ReadMem(2 bytes @ 0x20000000)  returns TRUE (0005ms, 0744ms total)
T22C0 001:110 JLINK_ReadReg(R15 (PC))  returns 0x20000000 (0000ms, 0739ms total)
T22C0 001:110 JLINK_ClrBPEx(BPHandle = 0x00000006)  returns 0x00 (0000ms, 0739ms total)
T22C0 001:110 JLINK_ReadReg(R0)  returns 0x00000000 (0000ms, 0739ms total)
T22C0 001:110 JLINK_WriteMem(0x20000164, 0x0400 Bytes, ...) - Data: 01 F0 10 01 09 B1 03 20 00 E0 04 20 70 47 00 B5 ... -- CPU_WriteMem(1024 bytes @ 0x20000164)  returns 0x400 (0012ms, 0751ms total)
T22C0 001:122 JLINK_WriteReg(R0, 0x08000800)  returns 0x00 (0000ms, 0751ms total)
T22C0 001:122 JLINK_WriteReg(R1, 0x00000400)  returns 0x00 (0000ms, 0751ms total)
T22C0 001:122 JLINK_WriteReg(R2, 0x20000164)  returns 0x00 (0000ms, 0751ms total)
T22C0 001:122 JLINK_WriteReg(R3, 0x00000000)  returns 0x00 (0000ms, 0751ms total)
T22C0 001:122 JLINK_WriteReg(R4, 0x00000000)  returns 0x00 (0000ms, 0751ms total)
T22C0 001:122 JLINK_WriteReg(R5, 0x00000000)  returns 0x00 (0000ms, 0751ms total)
T22C0 001:122 JLINK_WriteReg(R6, 0x00000000)  returns 0x00 (0000ms, 0751ms total)
T22C0 001:122 JLINK_WriteReg(R7, 0x00000000)  returns 0x00 (0000ms, 0751ms total)
T22C0 001:122 JLINK_WriteReg(R8, 0x00000000)  returns 0x00 (0000ms, 0751ms total)
T22C0 001:122 JLINK_WriteReg(R9, 0x20000160)  returns 0x00 (0000ms, 0751ms total)
T22C0 001:122 JLINK_WriteReg(R10, 0x00000000)  returns 0x00 (0000ms, 0751ms total)
T22C0 001:122 JLINK_WriteReg(R11, 0x00000000)  returns 0x00 (0000ms, 0751ms total)
T22C0 001:122 JLINK_WriteReg(R12, 0x00000000)  returns 0x00 (0000ms, 0751ms total)
T22C0 001:122 JLINK_WriteReg(R13 (SP), 0x20000800)  returns 0x00 (0000ms, 0751ms total)
T22C0 001:122 JLINK_WriteReg(R14, 0x20000001)  returns 0x00 (0000ms, 0751ms total)
T22C0 001:122 JLINK_WriteReg(R15 (PC), 0x200000F4)  returns 0x00 (0001ms, 0752ms total)
T22C0 001:123 JLINK_WriteReg(XPSR, 0x01000000)  returns 0x00 (0000ms, 0752ms total)
T22C0 001:123 JLINK_WriteReg(MSP, 0x20000800)  returns 0x00 (0000ms, 0752ms total)
T22C0 001:123 JLINK_WriteReg(PSP, 0x20000800)  returns 0x00 (0000ms, 0752ms total)
T22C0 001:123 JLINK_WriteReg(CFBP, 0x00000000)  returns 0x00 (0000ms, 0752ms total)
T22C0 001:123 JLINK_SetBPEx(Addr = 0x20000000, Type = 0xFFFFFFF2)  returns 0x00000007 (0000ms, 0752ms total)
T22C0 001:123 JLINK_Go() (0002ms, 0754ms total)
T22C0 001:125 JLINK_IsHalted()  returns FALSE (0000ms, 0754ms total)
T22C0 001:129 JLINK_IsHalted()  returns FALSE (0001ms, 0755ms total)
T22C0 001:131 JLINK_IsHalted()  returns FALSE (0000ms, 0754ms total)
T22C0 001:133 JLINK_IsHalted()  returns FALSE (0000ms, 0754ms total)
T22C0 001:135 JLINK_IsHalted()  returns FALSE (0001ms, 0755ms total)
T22C0 001:137 JLINK_IsHalted()  returns FALSE (0000ms, 0754ms total)
T22C0 001:139 JLINK_IsHalted()  returns FALSE (0000ms, 0754ms total)
T22C0 001:141 JLINK_IsHalted()  returns FALSE (0000ms, 0754ms total)
T22C0 001:143 JLINK_IsHalted()  returns FALSE (0000ms, 0754ms total)
T22C0 001:145 JLINK_IsHalted()  returns FALSE (0000ms, 0754ms total)
T22C0 001:147 JLINK_IsHalted()  returns FALSE (0000ms, 0754ms total)
T22C0 001:149 JLINK_IsHalted()  returns FALSE (0000ms, 0754ms total)
T22C0 001:151 JLINK_IsHalted()  returns FALSE (0000ms, 0754ms total)
T22C0 001:158 JLINK_IsHalted() -- CPU_ReadMem(2 bytes @ 0x20000000)  returns TRUE (0003ms, 0757ms total)
T22C0 001:161 JLINK_ReadReg(R15 (PC))  returns 0x20000000 (0000ms, 0754ms total)
T22C0 001:161 JLINK_ClrBPEx(BPHandle = 0x00000007)  returns 0x00 (0000ms, 0754ms total)
T22C0 001:161 JLINK_ReadReg(R0)  returns 0x00000000 (0001ms, 0755ms total)
T22C0 001:162 JLINK_WriteMem(0x20000164, 0x0400 Bytes, ...) - Data: 41 F6 EF 71 08 40 44 49 08 61 08 E0 05 2C 06 D0 ... -- CPU_WriteMem(1024 bytes @ 0x20000164)  returns 0x400 (0012ms, 0767ms total)
T22C0 001:174 JLINK_WriteReg(R0, 0x08000C00)  returns 0x00 (0000ms, 0767ms total)
T22C0 001:174 JLINK_WriteReg(R1, 0x00000400)  returns 0x00 (0001ms, 0768ms total)
T22C0 001:175 JLINK_WriteReg(R2, 0x20000164)  returns 0x00 (0000ms, 0768ms total)
T22C0 001:175 JLINK_WriteReg(R3, 0x00000000)  returns 0x00 (0000ms, 0768ms total)
T22C0 001:175 JLINK_WriteReg(R4, 0x00000000)  returns 0x00 (0000ms, 0768ms total)
T22C0 001:175 JLINK_WriteReg(R5, 0x00000000)  returns 0x00 (0000ms, 0768ms total)
T22C0 001:175 JLINK_WriteReg(R6, 0x00000000)  returns 0x00 (0000ms, 0768ms total)
T22C0 001:175 JLINK_WriteReg(R7, 0x00000000)  returns 0x00 (0000ms, 0768ms total)
T22C0 001:175 JLINK_WriteReg(R8, 0x00000000)  returns 0x00 (0000ms, 0768ms total)
T22C0 001:175 JLINK_WriteReg(R9, 0x20000160)  returns 0x00 (0000ms, 0768ms total)
T22C0 001:175 JLINK_WriteReg(R10, 0x00000000)  returns 0x00 (0000ms, 0768ms total)
T22C0 001:175 JLINK_WriteReg(R11, 0x00000000)  returns 0x00 (0000ms, 0768ms total)
T22C0 001:175 JLINK_WriteReg(R12, 0x00000000)  returns 0x00 (0000ms, 0768ms total)
T22C0 001:175 JLINK_WriteReg(R13 (SP), 0x20000800)  returns 0x00 (0000ms, 0768ms total)
T22C0 001:175 JLINK_WriteReg(R14, 0x20000001)  returns 0x00 (0000ms, 0768ms total)
T22C0 001:175 JLINK_WriteReg(R15 (PC), 0x200000F4)  returns 0x00 (0000ms, 0768ms total)
T22C0 001:175 JLINK_WriteReg(XPSR, 0x01000000)  returns 0x00 (0000ms, 0768ms total)
T22C0 001:175 JLINK_WriteReg(MSP, 0x20000800)  returns 0x00 (0001ms, 0769ms total)
T22C0 001:176 JLINK_WriteReg(PSP, 0x20000800)  returns 0x00 (0000ms, 0769ms total)
T22C0 001:176 JLINK_WriteReg(CFBP, 0x00000000)  returns 0x00 (0000ms, 0769ms total)
T22C0 001:176 JLINK_SetBPEx(Addr = 0x20000000, Type = 0xFFFFFFF2)  returns 0x00000008 (0000ms, 0769ms total)
T22C0 001:176 JLINK_Go() (0002ms, 0771ms total)
T22C0 001:178 JLINK_IsHalted()  returns FALSE (0001ms, 0772ms total)
T22C0 001:182 JLINK_IsHalted()  returns FALSE (0000ms, 0771ms total)
T22C0 001:184 JLINK_IsHalted()  returns FALSE (0000ms, 0771ms total)
T22C0 001:187 JLINK_IsHalted()  returns FALSE (0000ms, 0771ms total)
T22C0 001:190 JLINK_IsHalted()  returns FALSE (0000ms, 0771ms total)
T22C0 001:192 JLINK_IsHalted()  returns FALSE (0000ms, 0771ms total)
T22C0 001:194 JLINK_IsHalted()  returns FALSE (0000ms, 0771ms total)
T22C0 001:197 JLINK_IsHalted()  returns FALSE (0000ms, 0771ms total)
T22C0 001:198 JLINK_IsHalted()  returns FALSE (0000ms, 0771ms total)
T22C0 001:200 JLINK_IsHalted()  returns FALSE (0000ms, 0771ms total)
T22C0 001:202 JLINK_IsHalted()  returns FALSE (0000ms, 0771ms total)
T22C0 001:205 JLINK_IsHalted()  returns FALSE (0000ms, 0771ms total)
T22C0 001:207 JLINK_IsHalted()  returns FALSE (0000ms, 0771ms total)
T22C0 001:209 JLINK_IsHalted() -- CPU_ReadMem(2 bytes @ 0x20000000)  returns TRUE (0004ms, 0775ms total)
T22C0 001:214 JLINK_ReadReg(R15 (PC))  returns 0x20000000 (0000ms, 0771ms total)
T22C0 001:214 JLINK_ClrBPEx(BPHandle = 0x00000008)  returns 0x00 (0000ms, 0771ms total)
T22C0 001:214 JLINK_ReadReg(R0)  returns 0x00000000 (0000ms, 0771ms total)
T22C0 001:214 JLINK_WriteMem(0x20000164, 0x0400 Bytes, ...) - Data: 00 46 B6 F1 00 4F 02 D1 1C 4E F1 61 01 E0 1B 4E ... -- CPU_WriteMem(1024 bytes @ 0x20000164)  returns 0x400 (0012ms, 0783ms total)
T22C0 001:226 JLINK_WriteReg(R0, 0x08001000)  returns 0x00 (0000ms, 0783ms total)
T22C0 001:226 JLINK_WriteReg(R1, 0x00000400)  returns 0x00 (0000ms, 0783ms total)
T22C0 001:226 JLINK_WriteReg(R2, 0x20000164)  returns 0x00 (0000ms, 0783ms total)
T22C0 001:226 JLINK_WriteReg(R3, 0x00000000)  returns 0x00 (0000ms, 0783ms total)
T22C0 001:226 JLINK_WriteReg(R4, 0x00000000)  returns 0x00 (0000ms, 0783ms total)
T22C0 001:226 JLINK_WriteReg(R5, 0x00000000)  returns 0x00 (0000ms, 0783ms total)
T22C0 001:226 JLINK_WriteReg(R6, 0x00000000)  returns 0x00 (0000ms, 0783ms total)
T22C0 001:226 JLINK_WriteReg(R7, 0x00000000)  returns 0x00 (0000ms, 0783ms total)
T22C0 001:226 JLINK_WriteReg(R8, 0x00000000)  returns 0x00 (0000ms, 0783ms total)
T22C0 001:226 JLINK_WriteReg(R9, 0x20000160)  returns 0x00 (0000ms, 0783ms total)
T22C0 001:226 JLINK_WriteReg(R10, 0x00000000)  returns 0x00 (0001ms, 0784ms total)
T22C0 001:227 JLINK_WriteReg(R11, 0x00000000)  returns 0x00 (0000ms, 0784ms total)
T22C0 001:227 JLINK_WriteReg(R12, 0x00000000)  returns 0x00 (0000ms, 0784ms total)
T22C0 001:227 JLINK_WriteReg(R13 (SP), 0x20000800)  returns 0x00 (0000ms, 0784ms total)
T22C0 001:227 JLINK_WriteReg(R14, 0x20000001)  returns 0x00 (0000ms, 0784ms total)
T22C0 001:227 JLINK_WriteReg(R15 (PC), 0x200000F4)  returns 0x00 (0000ms, 0784ms total)
T22C0 001:227 JLINK_WriteReg(XPSR, 0x01000000)  returns 0x00 (0000ms, 0784ms total)
T22C0 001:227 JLINK_WriteReg(MSP, 0x20000800)  returns 0x00 (0000ms, 0784ms total)
T22C0 001:227 JLINK_WriteReg(PSP, 0x20000800)  returns 0x00 (0000ms, 0784ms total)
T22C0 001:227 JLINK_WriteReg(CFBP, 0x00000000)  returns 0x00 (0000ms, 0784ms total)
T22C0 001:227 JLINK_SetBPEx(Addr = 0x20000000, Type = 0xFFFFFFF2)  returns 0x00000009 (0000ms, 0784ms total)
T22C0 001:227 JLINK_Go() (0002ms, 0786ms total)
T22C0 001:229 JLINK_IsHalted()  returns FALSE (0001ms, 0787ms total)
T22C0 001:232 JLINK_IsHalted()  returns FALSE (0001ms, 0787ms total)
T22C0 001:235 JLINK_IsHalted()  returns FALSE (0000ms, 0786ms total)
T22C0 001:237 JLINK_IsHalted()  returns FALSE (0000ms, 0786ms total)
T22C0 001:239 JLINK_IsHalted()  returns FALSE (0000ms, 0786ms total)
T22C0 001:241 JLINK_IsHalted()  returns FALSE (0000ms, 0787ms total)
T22C0 001:243 JLINK_IsHalted()  returns FALSE (0000ms, 0787ms total)
T22C0 001:245 JLINK_IsHalted()  returns FALSE (0000ms, 0787ms total)
T22C0 001:247 JLINK_IsHalted()  returns FALSE (0000ms, 0787ms total)
T22C0 001:249 JLINK_IsHalted()  returns FALSE (0000ms, 0787ms total)
T22C0 001:251 JLINK_IsHalted()  returns FALSE (0000ms, 0787ms total)
T22C0 001:253 JLINK_IsHalted()  returns FALSE (0001ms, 0788ms total)
T22C0 001:255 JLINK_IsHalted()  returns FALSE (0001ms, 0788ms total)
T22C0 001:257 JLINK_IsHalted()  returns FALSE (0001ms, 0788ms total)
T22C0 001:259 JLINK_IsHalted()  returns FALSE (0001ms, 0788ms total)
T22C0 001:264 JLINK_IsHalted() -- CPU_ReadMem(2 bytes @ 0x20000000)  returns TRUE (0004ms, 0791ms total)
T22C0 001:268 JLINK_ReadReg(R15 (PC))  returns 0x20000000 (0000ms, 0787ms total)
T22C0 001:268 JLINK_ClrBPEx(BPHandle = 0x00000009)  returns 0x00 (0000ms, 0787ms total)
T22C0 001:268 JLINK_ReadReg(R0)  returns 0x00000000 (0000ms, 0787ms total)
T22C0 001:269 JLINK_WriteMem(0x20000164, 0x0400 Bytes, ...) - Data: 88 72 70 47 00 10 02 40 00 00 FF F8 FF FF F6 FE ... -- CPU_WriteMem(1024 bytes @ 0x20000164)  returns 0x400 (0012ms, 0799ms total)
T22C0 001:281 JLINK_WriteReg(R0, 0x08001400)  returns 0x00 (0000ms, 0799ms total)
T22C0 001:281 JLINK_WriteReg(R1, 0x00000400)  returns 0x00 (0000ms, 0799ms total)
T22C0 001:281 JLINK_WriteReg(R2, 0x20000164)  returns 0x00 (0000ms, 0799ms total)
T22C0 001:281 JLINK_WriteReg(R3, 0x00000000)  returns 0x00 (0000ms, 0799ms total)
T22C0 001:281 JLINK_WriteReg(R4, 0x00000000)  returns 0x00 (0000ms, 0799ms total)
T22C0 001:281 JLINK_WriteReg(R5, 0x00000000)  returns 0x00 (0000ms, 0799ms total)
T22C0 001:281 JLINK_WriteReg(R6, 0x00000000)  returns 0x00 (0000ms, 0799ms total)
T22C0 001:281 JLINK_WriteReg(R7, 0x00000000)  returns 0x00 (0000ms, 0799ms total)
T22C0 001:281 JLINK_WriteReg(R8, 0x00000000)  returns 0x00 (0000ms, 0799ms total)
T22C0 001:281 JLINK_WriteReg(R9, 0x20000160)  returns 0x00 (0000ms, 0799ms total)
T22C0 001:281 JLINK_WriteReg(R10, 0x00000000)  returns 0x00 (0000ms, 0799ms total)
T22C0 001:281 JLINK_WriteReg(R11, 0x00000000)  returns 0x00 (0000ms, 0799ms total)
T22C0 001:281 JLINK_WriteReg(R12, 0x00000000)  returns 0x00 (0000ms, 0799ms total)
T22C0 001:281 JLINK_WriteReg(R13 (SP), 0x20000800)  returns 0x00 (0000ms, 0799ms total)
T22C0 001:281 JLINK_WriteReg(R14, 0x20000001)  returns 0x00 (0000ms, 0799ms total)
T22C0 001:281 JLINK_WriteReg(R15 (PC), 0x200000F4)  returns 0x00 (0000ms, 0799ms total)
T22C0 001:281 JLINK_WriteReg(XPSR, 0x01000000)  returns 0x00 (0000ms, 0799ms total)
T22C0 001:282 JLINK_WriteReg(MSP, 0x20000800)  returns 0x00 (0000ms, 0800ms total)
T22C0 001:282 JLINK_WriteReg(PSP, 0x20000800)  returns 0x00 (0000ms, 0800ms total)
T22C0 001:282 JLINK_WriteReg(CFBP, 0x00000000)  returns 0x00 (0000ms, 0800ms total)
T22C0 001:282 JLINK_SetBPEx(Addr = 0x20000000, Type = 0xFFFFFFF2)  returns 0x0000000A (0000ms, 0800ms total)
T22C0 001:282 JLINK_Go() (0002ms, 0802ms total)
T22C0 001:284 JLINK_IsHalted()  returns FALSE (0000ms, 0802ms total)
T22C0 001:287 JLINK_IsHalted()  returns FALSE (0001ms, 0803ms total)
T22C0 001:290 JLINK_IsHalted()  returns FALSE (0000ms, 0802ms total)
T22C0 001:292 JLINK_IsHalted()  returns FALSE (0000ms, 0802ms total)
T22C0 001:295 JLINK_IsHalted()  returns FALSE (0000ms, 0802ms total)
T22C0 001:297 JLINK_IsHalted()  returns FALSE (0000ms, 0802ms total)
T22C0 001:299 JLINK_IsHalted()  returns FALSE (0000ms, 0802ms total)
T22C0 001:301 JLINK_IsHalted()  returns FALSE (0000ms, 0802ms total)
T22C0 001:303 JLINK_IsHalted()  returns FALSE (0000ms, 0802ms total)
T22C0 001:305 JLINK_IsHalted()  returns FALSE (0000ms, 0802ms total)
T22C0 001:306 JLINK_IsHalted()  returns FALSE (0001ms, 0803ms total)
T22C0 001:309 JLINK_IsHalted()  returns FALSE (0000ms, 0802ms total)
T22C0 001:312 JLINK_IsHalted()  returns FALSE (0000ms, 0802ms total)
T22C0 001:314 JLINK_IsHalted() -- CPU_ReadMem(2 bytes @ 0x20000000)  returns TRUE (0004ms, 0806ms total)
T22C0 001:318 JLINK_ReadReg(R15 (PC))  returns 0x20000000 (0000ms, 0802ms total)
T22C0 001:318 JLINK_ClrBPEx(BPHandle = 0x0000000A)  returns 0x00 (0000ms, 0802ms total)
T22C0 001:318 JLINK_ReadReg(R0)  returns 0x00000000 (0000ms, 0802ms total)
T22C0 001:319 JLINK_WriteMem(0x20000164, 0x0400 Bytes, ...) - Data: 02 2D 0F D1 16 8A 33 40 0E E0 00 00 00 38 01 40 ... -- CPU_WriteMem(1024 bytes @ 0x20000164)  returns 0x400 (0012ms, 0814ms total)
T22C0 001:331 JLINK_WriteReg(R0, 0x08001800)  returns 0x00 (0000ms, 0814ms total)
T22C0 001:331 JLINK_WriteReg(R1, 0x00000400)  returns 0x00 (0000ms, 0814ms total)
T22C0 001:331 JLINK_WriteReg(R2, 0x20000164)  returns 0x00 (0000ms, 0814ms total)
T22C0 001:331 JLINK_WriteReg(R3, 0x00000000)  returns 0x00 (0000ms, 0814ms total)
T22C0 001:331 JLINK_WriteReg(R4, 0x00000000)  returns 0x00 (0000ms, 0814ms total)
T22C0 001:331 JLINK_WriteReg(R5, 0x00000000)  returns 0x00 (0000ms, 0814ms total)
T22C0 001:331 JLINK_WriteReg(R6, 0x00000000)  returns 0x00 (0000ms, 0814ms total)
T22C0 001:331 JLINK_WriteReg(R7, 0x00000000)  returns 0x00 (0000ms, 0814ms total)
T22C0 001:331 JLINK_WriteReg(R8, 0x00000000)  returns 0x00 (0001ms, 0815ms total)
T22C0 001:332 JLINK_WriteReg(R9, 0x20000160)  returns 0x00 (0000ms, 0815ms total)
T22C0 001:332 JLINK_WriteReg(R10, 0x00000000)  returns 0x00 (0000ms, 0815ms total)
T22C0 001:332 JLINK_WriteReg(R11, 0x00000000)  returns 0x00 (0000ms, 0815ms total)
T22C0 001:332 JLINK_WriteReg(R12, 0x00000000)  returns 0x00 (0000ms, 0815ms total)
T22C0 001:332 JLINK_WriteReg(R13 (SP), 0x20000800)  returns 0x00 (0000ms, 0815ms total)
T22C0 001:332 JLINK_WriteReg(R14, 0x20000001)  returns 0x00 (0000ms, 0815ms total)
T22C0 001:332 JLINK_WriteReg(R15 (PC), 0x200000F4)  returns 0x00 (0000ms, 0815ms total)
T22C0 001:332 JLINK_WriteReg(XPSR, 0x01000000)  returns 0x00 (0000ms, 0815ms total)
T22C0 001:332 JLINK_WriteReg(MSP, 0x20000800)  returns 0x00 (0000ms, 0815ms total)
T22C0 001:332 JLINK_WriteReg(PSP, 0x20000800)  returns 0x00 (0000ms, 0815ms total)
T22C0 001:332 JLINK_WriteReg(CFBP, 0x00000000)  returns 0x00 (0000ms, 0815ms total)
T22C0 001:332 JLINK_SetBPEx(Addr = 0x20000000, Type = 0xFFFFFFF2)  returns 0x0000000B (0000ms, 0815ms total)
T22C0 001:332 JLINK_Go() (0003ms, 0818ms total)
T22C0 001:335 JLINK_IsHalted()  returns FALSE (0001ms, 0819ms total)
T22C0 001:340 JLINK_IsHalted()  returns FALSE (0000ms, 0818ms total)
T22C0 001:342 JLINK_IsHalted()  returns FALSE (0000ms, 0818ms total)
T22C0 001:344 JLINK_IsHalted()  returns FALSE (0001ms, 0819ms total)
T22C0 001:346 JLINK_IsHalted()  returns FALSE (0001ms, 0819ms total)
T22C0 001:348 JLINK_IsHalted()  returns FALSE (0001ms, 0819ms total)
T22C0 001:350 JLINK_IsHalted()  returns FALSE (0001ms, 0819ms total)
T22C0 001:352 JLINK_IsHalted()  returns FALSE (0000ms, 0818ms total)
T22C0 001:354 JLINK_IsHalted()  returns FALSE (0000ms, 0818ms total)
T22C0 001:357 JLINK_IsHalted()  returns FALSE (0000ms, 0818ms total)
T22C0 001:359 JLINK_IsHalted()  returns FALSE (0000ms, 0818ms total)
T22C0 001:362 JLINK_IsHalted()  returns FALSE (0000ms, 0818ms total)
T22C0 001:365 JLINK_IsHalted()  returns FALSE (0000ms, 0818ms total)
T22C0 001:367 JLINK_IsHalted() -- CPU_ReadMem(2 bytes @ 0x20000000)  returns TRUE (0004ms, 0822ms total)
T22C0 001:371 JLINK_ReadReg(R15 (PC))  returns 0x20000000 (0000ms, 0818ms total)
T22C0 001:371 JLINK_ClrBPEx(BPHandle = 0x0000000B)  returns 0x00 (0000ms, 0818ms total)
T22C0 001:371 JLINK_ReadReg(R0)  returns 0x00000000 (0000ms, 0818ms total)
T22C0 001:373 JLINK_WriteMem(0x20000164, 0x0400 Bytes, ...) - Data: 40 00 A1 68 B0 FB F1 F0 40 1D 86 B2 0A 20 B6 FB ... -- CPU_WriteMem(1024 bytes @ 0x20000164)  returns 0x400 (0010ms, 0828ms total)
T22C0 001:383 JLINK_WriteReg(R0, 0x08001C00)  returns 0x00 (0000ms, 0828ms total)
T22C0 001:383 JLINK_WriteReg(R1, 0x00000400)  returns 0x00 (0000ms, 0828ms total)
T22C0 001:383 JLINK_WriteReg(R2, 0x20000164)  returns 0x00 (0000ms, 0828ms total)
T22C0 001:383 JLINK_WriteReg(R3, 0x00000000)  returns 0x00 (0000ms, 0828ms total)
T22C0 001:383 JLINK_WriteReg(R4, 0x00000000)  returns 0x00 (0000ms, 0828ms total)
T22C0 001:383 JLINK_WriteReg(R5, 0x00000000)  returns 0x00 (0000ms, 0828ms total)
T22C0 001:383 JLINK_WriteReg(R6, 0x00000000)  returns 0x00 (0000ms, 0828ms total)
T22C0 001:383 JLINK_WriteReg(R7, 0x00000000)  returns 0x00 (0000ms, 0828ms total)
T22C0 001:383 JLINK_WriteReg(R8, 0x00000000)  returns 0x00 (0000ms, 0828ms total)
T22C0 001:383 JLINK_WriteReg(R9, 0x20000160)  returns 0x00 (0000ms, 0828ms total)
T22C0 001:383 JLINK_WriteReg(R10, 0x00000000)  returns 0x00 (0000ms, 0828ms total)
T22C0 001:383 JLINK_WriteReg(R11, 0x00000000)  returns 0x00 (0001ms, 0829ms total)
T22C0 001:384 JLINK_WriteReg(R12, 0x00000000)  returns 0x00 (0000ms, 0829ms total)
T22C0 001:384 JLINK_WriteReg(R13 (SP), 0x20000800)  returns 0x00 (0000ms, 0829ms total)
T22C0 001:384 JLINK_WriteReg(R14, 0x20000001)  returns 0x00 (0000ms, 0829ms total)
T22C0 001:384 JLINK_WriteReg(R15 (PC), 0x200000F4)  returns 0x00 (0000ms, 0829ms total)
T22C0 001:384 JLINK_WriteReg(XPSR, 0x01000000)  returns 0x00 (0000ms, 0829ms total)
T22C0 001:384 JLINK_WriteReg(MSP, 0x20000800)  returns 0x00 (0000ms, 0829ms total)
T22C0 001:384 JLINK_WriteReg(PSP, 0x20000800)  returns 0x00 (0000ms, 0829ms total)
T22C0 001:384 JLINK_WriteReg(CFBP, 0x00000000)  returns 0x00 (0000ms, 0829ms total)
T22C0 001:384 JLINK_SetBPEx(Addr = 0x20000000, Type = 0xFFFFFFF2)  returns 0x0000000C (0000ms, 0829ms total)
T22C0 001:384 JLINK_Go() (0001ms, 0830ms total)
T22C0 001:386 JLINK_IsHalted()  returns FALSE (0000ms, 0831ms total)
T22C0 001:393 JLINK_IsHalted()  returns FALSE (0000ms, 0831ms total)
T22C0 001:396 JLINK_IsHalted()  returns FALSE (0000ms, 0831ms total)
T22C0 001:398 JLINK_IsHalted()  returns FALSE (0000ms, 0831ms total)
T22C0 001:400 JLINK_IsHalted()  returns FALSE (0000ms, 0831ms total)
T22C0 001:403 JLINK_IsHalted()  returns FALSE (0001ms, 0832ms total)
T22C0 001:406 JLINK_IsHalted()  returns FALSE (0000ms, 0831ms total)
T22C0 001:408 JLINK_IsHalted()  returns FALSE (0000ms, 0831ms total)
T22C0 001:410 JLINK_IsHalted()  returns FALSE (0000ms, 0832ms total)
T22C0 001:412 JLINK_IsHalted()  returns FALSE (0001ms, 0833ms total)
T22C0 001:414 JLINK_IsHalted()  returns FALSE (0001ms, 0833ms total)
T22C0 001:416 JLINK_IsHalted()  returns FALSE (0000ms, 0832ms total)
T22C0 001:418 JLINK_IsHalted() -- CPU_ReadMem(2 bytes @ 0x20000000)  returns TRUE (0004ms, 0836ms total)
T22C0 001:422 JLINK_ReadReg(R15 (PC))  returns 0x20000000 (0000ms, 0832ms total)
T22C0 001:422 JLINK_ClrBPEx(BPHandle = 0x0000000C)  returns 0x00 (0000ms, 0832ms total)
T22C0 001:422 JLINK_ReadReg(R0)  returns 0x00000000 (0000ms, 0832ms total)
T22C0 001:423 JLINK_WriteMem(0x20000164, 0x0400 Bytes, ...) - Data: FE E7 00 BF FE E7 00 BF FE E7 00 BF FE E7 70 47 ... -- CPU_WriteMem(1024 bytes @ 0x20000164)  returns 0x400 (0011ms, 0843ms total)
T22C0 001:434 JLINK_WriteReg(R0, 0x08002000)  returns 0x00 (0000ms, 0843ms total)
T22C0 001:434 JLINK_WriteReg(R1, 0x00000400)  returns 0x00 (0000ms, 0843ms total)
T22C0 001:434 JLINK_WriteReg(R2, 0x20000164)  returns 0x00 (0000ms, 0843ms total)
T22C0 001:434 JLINK_WriteReg(R3, 0x00000000)  returns 0x00 (0000ms, 0843ms total)
T22C0 001:434 JLINK_WriteReg(R4, 0x00000000)  returns 0x00 (0000ms, 0843ms total)
T22C0 001:434 JLINK_WriteReg(R5, 0x00000000)  returns 0x00 (0000ms, 0843ms total)
T22C0 001:434 JLINK_WriteReg(R6, 0x00000000)  returns 0x00 (0000ms, 0843ms total)
T22C0 001:434 JLINK_WriteReg(R7, 0x00000000)  returns 0x00 (0000ms, 0843ms total)
T22C0 001:434 JLINK_WriteReg(R8, 0x00000000)  returns 0x00 (0000ms, 0843ms total)
T22C0 001:434 JLINK_WriteReg(R9, 0x20000160)  returns 0x00 (0000ms, 0843ms total)
T22C0 001:434 JLINK_WriteReg(R10, 0x00000000)  returns 0x00 (0000ms, 0843ms total)
T22C0 001:434 JLINK_WriteReg(R11, 0x00000000)  returns 0x00 (0000ms, 0843ms total)
T22C0 001:434 JLINK_WriteReg(R12, 0x00000000)  returns 0x00 (0000ms, 0843ms total)
T22C0 001:434 JLINK_WriteReg(R13 (SP), 0x20000800)  returns 0x00 (0000ms, 0843ms total)
T22C0 001:434 JLINK_WriteReg(R14, 0x20000001)  returns 0x00 (0000ms, 0843ms total)
T22C0 001:434 JLINK_WriteReg(R15 (PC), 0x200000F4)  returns 0x00 (0000ms, 0843ms total)
T22C0 001:434 JLINK_WriteReg(XPSR, 0x01000000)  returns 0x00 (0000ms, 0843ms total)
T22C0 001:434 JLINK_WriteReg(MSP, 0x20000800)  returns 0x00 (0000ms, 0843ms total)
T22C0 001:434 JLINK_WriteReg(PSP, 0x20000800)  returns 0x00 (0000ms, 0843ms total)
T22C0 001:434 JLINK_WriteReg(CFBP, 0x00000000)  returns 0x00 (0000ms, 0843ms total)
T22C0 001:434 JLINK_SetBPEx(Addr = 0x20000000, Type = 0xFFFFFFF2)  returns 0x0000000D (0000ms, 0843ms total)
T22C0 001:434 JLINK_Go() (0003ms, 0846ms total)
T22C0 001:437 JLINK_IsHalted()  returns FALSE (0000ms, 0846ms total)
T22C0 001:440 JLINK_IsHalted()  returns FALSE (0000ms, 0846ms total)
T22C0 001:442 JLINK_IsHalted()  returns FALSE (0000ms, 0846ms total)
T22C0 001:445 JLINK_IsHalted()  returns FALSE (0000ms, 0846ms total)
T22C0 001:447 JLINK_IsHalted()  returns FALSE (0000ms, 0846ms total)
T22C0 001:449 JLINK_IsHalted()  returns FALSE (0000ms, 0846ms total)
T22C0 001:452 JLINK_IsHalted()  returns FALSE (0000ms, 0846ms total)
T22C0 001:455 JLINK_IsHalted()  returns FALSE (0000ms, 0846ms total)
T22C0 001:457 JLINK_IsHalted()  returns FALSE (0000ms, 0846ms total)
T22C0 001:459 JLINK_IsHalted()  returns FALSE (0000ms, 0846ms total)
T22C0 001:461 JLINK_IsHalted()  returns FALSE (0001ms, 0847ms total)
T22C0 001:463 JLINK_IsHalted()  returns FALSE (0000ms, 0846ms total)
T22C0 001:465 JLINK_IsHalted()  returns FALSE (0000ms, 0846ms total)
T22C0 001:467 JLINK_IsHalted() -- CPU_ReadMem(2 bytes @ 0x20000000)  returns TRUE (0005ms, 0851ms total)
T22C0 001:472 JLINK_ReadReg(R15 (PC))  returns 0x20000000 (0000ms, 0846ms total)
T22C0 001:472 JLINK_ClrBPEx(BPHandle = 0x0000000D)  returns 0x00 (0000ms, 0846ms total)
T22C0 001:472 JLINK_ReadReg(R0)  returns 0x00000000 (0000ms, 0846ms total)
T22C0 001:472 JLINK_WriteMem(0x20000164, 0x0400 Bytes, ...) - Data: 69 46 8B 48 FE F7 F0 FC 40 20 AD F8 00 00 10 20 ... -- CPU_WriteMem(1024 bytes @ 0x20000164)  returns 0x400 (0012ms, 0858ms total)
T22C0 001:484 JLINK_WriteReg(R0, 0x08002400)  returns 0x00 (0000ms, 0858ms total)
T22C0 001:484 JLINK_WriteReg(R1, 0x00000400)  returns 0x00 (0000ms, 0858ms total)
T22C0 001:484 JLINK_WriteReg(R2, 0x20000164)  returns 0x00 (0000ms, 0858ms total)
T22C0 001:484 JLINK_WriteReg(R3, 0x00000000)  returns 0x00 (0000ms, 0858ms total)
T22C0 001:484 JLINK_WriteReg(R4, 0x00000000)  returns 0x00 (0000ms, 0858ms total)
T22C0 001:484 JLINK_WriteReg(R5, 0x00000000)  returns 0x00 (0000ms, 0858ms total)
T22C0 001:484 JLINK_WriteReg(R6, 0x00000000)  returns 0x00 (0000ms, 0858ms total)
T22C0 001:484 JLINK_WriteReg(R7, 0x00000000)  returns 0x00 (0000ms, 0858ms total)
T22C0 001:485 JLINK_WriteReg(R8, 0x00000000)  returns 0x00 (0000ms, 0858ms total)
T22C0 001:485 JLINK_WriteReg(R9, 0x20000160)  returns 0x00 (0000ms, 0858ms total)
T22C0 001:485 JLINK_WriteReg(R10, 0x00000000)  returns 0x00 (0000ms, 0858ms total)
T22C0 001:485 JLINK_WriteReg(R11, 0x00000000)  returns 0x00 (0000ms, 0858ms total)
T22C0 001:485 JLINK_WriteReg(R12, 0x00000000)  returns 0x00 (0000ms, 0858ms total)
T22C0 001:485 JLINK_WriteReg(R13 (SP), 0x20000800)  returns 0x00 (0000ms, 0858ms total)
T22C0 001:485 JLINK_WriteReg(R14, 0x20000001)  returns 0x00 (0000ms, 0858ms total)
T22C0 001:485 JLINK_WriteReg(R15 (PC), 0x200000F4)  returns 0x00 (0000ms, 0858ms total)
T22C0 001:485 JLINK_WriteReg(XPSR, 0x01000000)  returns 0x00 (0000ms, 0858ms total)
T22C0 001:485 JLINK_WriteReg(MSP, 0x20000800)  returns 0x00 (0000ms, 0858ms total)
T22C0 001:485 JLINK_WriteReg(PSP, 0x20000800)  returns 0x00 (0000ms, 0858ms total)
T22C0 001:485 JLINK_WriteReg(CFBP, 0x00000000)  returns 0x00 (0000ms, 0858ms total)
T22C0 001:485 JLINK_SetBPEx(Addr = 0x20000000, Type = 0xFFFFFFF2)  returns 0x0000000E (0000ms, 0858ms total)
T22C0 001:485 JLINK_Go() (0003ms, 0861ms total)
T22C0 001:488 JLINK_IsHalted()  returns FALSE (0000ms, 0861ms total)
T22C0 001:496 JLINK_IsHalted()  returns FALSE (0000ms, 0861ms total)
T22C0 001:498 JLINK_IsHalted()  returns FALSE (0000ms, 0861ms total)
T22C0 001:501 JLINK_IsHalted()  returns FALSE (0000ms, 0861ms total)
T22C0 001:503 JLINK_IsHalted()  returns FALSE (0000ms, 0861ms total)
T22C0 001:505 JLINK_IsHalted()  returns FALSE (0000ms, 0861ms total)
T22C0 001:507 JLINK_IsHalted()  returns FALSE (0000ms, 0861ms total)
T22C0 001:509 JLINK_IsHalted()  returns FALSE (0000ms, 0861ms total)
T22C0 001:511 JLINK_IsHalted()  returns FALSE (0000ms, 0861ms total)
T22C0 001:515 JLINK_IsHalted()  returns FALSE (0000ms, 0861ms total)
T22C0 001:517 JLINK_IsHalted()  returns FALSE (0000ms, 0861ms total)
T22C0 001:519 JLINK_IsHalted() -- CPU_ReadMem(2 bytes @ 0x20000000)  returns TRUE (0004ms, 0865ms total)
T22C0 001:523 JLINK_ReadReg(R15 (PC))  returns 0x20000000 (0000ms, 0861ms total)
T22C0 001:523 JLINK_ClrBPEx(BPHandle = 0x0000000E)  returns 0x00 (0001ms, 0862ms total)
T22C0 001:524 JLINK_ReadReg(R0)  returns 0x00000000 (0000ms, 0862ms total)
T22C0 001:524 JLINK_WriteMem(0x20000164, 0x0400 Bytes, ...) - Data: F3 FA 00 20 AD F8 08 00 4F F4 82 70 AD F8 0A 00 ... -- CPU_WriteMem(1024 bytes @ 0x20000164)  returns 0x400 (0013ms, 0875ms total)
T22C0 001:537 JLINK_WriteReg(R0, 0x08002800)  returns 0x00 (0000ms, 0875ms total)
T22C0 001:537 JLINK_WriteReg(R1, 0x00000400)  returns 0x00 (0000ms, 0875ms total)
T22C0 001:537 JLINK_WriteReg(R2, 0x20000164)  returns 0x00 (0000ms, 0875ms total)
T22C0 001:537 JLINK_WriteReg(R3, 0x00000000)  returns 0x00 (0000ms, 0875ms total)
T22C0 001:537 JLINK_WriteReg(R4, 0x00000000)  returns 0x00 (0000ms, 0875ms total)
T22C0 001:537 JLINK_WriteReg(R5, 0x00000000)  returns 0x00 (0000ms, 0875ms total)
T22C0 001:537 JLINK_WriteReg(R6, 0x00000000)  returns 0x00 (0000ms, 0875ms total)
T22C0 001:537 JLINK_WriteReg(R7, 0x00000000)  returns 0x00 (0000ms, 0875ms total)
T22C0 001:537 JLINK_WriteReg(R8, 0x00000000)  returns 0x00 (0000ms, 0875ms total)
T22C0 001:537 JLINK_WriteReg(R9, 0x20000160)  returns 0x00 (0000ms, 0875ms total)
T22C0 001:537 JLINK_WriteReg(R10, 0x00000000)  returns 0x00 (0000ms, 0875ms total)
T22C0 001:537 JLINK_WriteReg(R11, 0x00000000)  returns 0x00 (0000ms, 0875ms total)
T22C0 001:537 JLINK_WriteReg(R12, 0x00000000)  returns 0x00 (0000ms, 0875ms total)
T22C0 001:537 JLINK_WriteReg(R13 (SP), 0x20000800)  returns 0x00 (0000ms, 0875ms total)
T22C0 001:537 JLINK_WriteReg(R14, 0x20000001)  returns 0x00 (0000ms, 0875ms total)
T22C0 001:537 JLINK_WriteReg(R15 (PC), 0x200000F4)  returns 0x00 (0000ms, 0875ms total)
